Script started on Mon 28 Oct 2019 11:00:58 AM PDT
]0;root@gravitar: /usr/local/src/openocd-0.10.1/tclroot@gravitar:/usr/local/src/openocd-0.10.1/tcl# exit../src/openocd --debug 0 -f boarrd/lpc55xx.cfg
Open On-Chip Debugger 0.10.0
Licensed under GNU GPL v2
For bug reports, read
	http://openocd.org/doc/doxygen/bugs.html
User : 13 1 command.c:544 command_print(): debug_level: 3
Debug: 14 1 options.c:181 add_default_dirs(): bindir=/usr/local/bin
Debug: 15 1 options.c:182 add_default_dirs(): pkgdatadir=/usr/local/share/openocd
Debug: 16 1 options.c:183 add_default_dirs(): exepath=/usr/local/src/openocd-0.10.1/src
Debug: 17 1 options.c:184 add_default_dirs(): bin2data=../share/openocd
Debug: 18 1 configuration.c:42 add_script_search_dir(): adding /home/hrainnie/.openocd
Debug: 19 1 configuration.c:42 add_script_search_dir(): adding /usr/local/src/openocd-0.10.1/src/../share/openocd/site
Debug: 20 1 configuration.c:42 add_script_search_dir(): adding /usr/local/src/openocd-0.10.1/src/../share/openocd/scripts
Debug: 21 1 configuration.c:82 find_file(): found board/lpc55xx.cfg
Debug: 22 1 configuration.c:82 find_file(): found interface/cmsis-dap.cfg
Debug: 23 1 command.c:143 script_debug(): command - ocd_command ocd_command type ocd_interface cmsis-dap
Debug: 24 1 command.c:143 script_debug(): command - interface ocd_interface cmsis-dap
Debug: 26 1 command.c:364 register_command_handler(): registering 'ocd_cmsis-dap'...
Debug: 27 1 command.c:364 register_command_handler(): registering 'ocd_cmsis_dap_vid_pid'...
Debug: 28 1 command.c:364 register_command_handler(): registering 'ocd_cmsis_dap_serial'...
Debug: 29 1 command.c:143 script_debug(): command - ocd_command ocd_command type ocd_reset_config srst_gates_jtag
Debug: 30 1 command.c:143 script_debug(): command - reset_config ocd_reset_config srst_gates_jtag
User : 32 1 command.c:544 command_print(): none separate
Debug: 33 1 command.c:143 script_debug(): command - ocd_command ocd_command type ocd_transport select swd
Debug: 34 1 command.c:143 script_debug(): command - ocd_transport ocd_transport select swd
Debug: 35 1 command.c:323 command_new(): BUG: command 'swd' does not have the '.usage' field filled out
Debug: 36 1 command.c:364 register_command_handler(): registering 'ocd_swd'...
Debug: 37 1 configuration.c:82 find_file(): found target/lpc5569.cfg
Debug: 38 1 configuration.c:82 find_file(): found target/swj-dp.tcl
Debug: 39 1 command.c:143 script_debug(): command - ocd_command ocd_command type ocd_transport select
Debug: 40 1 command.c:143 script_debug(): command - ocd_transport ocd_transport select
Debug: 41 1 command.c:143 script_debug(): command - ocd_command ocd_command type ocd_adapter_khz 500
Debug: 42 1 command.c:143 script_debug(): command - adapter_khz ocd_adapter_khz 500
Debug: 44 1 core.c:1631 jtag_config_khz(): handle jtag khz
Debug: 45 1 core.c:1598 adapter_khz_to_speed(): convert khz to interface specific speed value
Debug: 46 1 core.c:1598 adapter_khz_to_speed(): convert khz to interface specific speed value
User : 47 1 command.c:544 command_print(): adapter speed: 500 kHz
Debug: 48 1 command.c:143 script_debug(): command - ocd_command ocd_command type ocd_transport select
Debug: 49 1 command.c:143 script_debug(): command - ocd_transport ocd_transport select
Debug: 50 2 command.c:143 script_debug(): command - ocd_command ocd_command type ocd_transport select
Debug: 51 2 command.c:143 script_debug(): command - ocd_transport ocd_transport select
Debug: 52 2 command.c:143 script_debug(): command - ocd_command ocd_command type ocd_transport select
Debug: 53 2 command.c:143 script_debug(): command - ocd_transport ocd_transport select
Debug: 54 2 command.c:143 script_debug(): command - ocd_command ocd_command type ocd_transport select
Debug: 55 2 command.c:143 script_debug(): command - ocd_transport ocd_transport select
Debug: 56 2 command.c:143 script_debug(): command - ocd_command ocd_command type ocd_swd newdap LPC5569 mX3 -irlen 4 -ircapture 0x1 -irmask 0xf -expected-id 0x6ba02477
Debug: 57 2 command.c:143 script_debug(): command - ocd_swd ocd_swd newdap LPC5569 mX3 -irlen 4 -ircapture 0x1 -irmask 0xf -expected-id 0x6ba02477
Debug: 58 2 tcl.c:549 jim_newtap_cmd(): Creating New Tap, Chip: LPC5569, Tap: mX3, Dotted: LPC5569.mX3, 8 params
Debug: 59 2 core.c:1304 jtag_tap_init(): Created Tap: LPC5569.mX3 @ abs position 0, irlen 0, capture: 0x0 mask: 0x0
Debug: 60 2 command.c:143 script_debug(): command - ocd_command ocd_command type ocd_target create LPC5569.mX3 cortex_mX3 -chain-position LPC5569.mX3
Debug: 61 2 command.c:143 script_debug(): command - ocd_target ocd_target create LPC5569.mX3 cortex_mX3 -chain-position LPC5569.mX3
Debug: 62 2 target.c:1901 target_free_all_working_areas_restore(): freeing all working areas
Debug: 63 2 command.c:364 register_command_handler(): registering 'ocd_arm'...
Debug: 64 2 command.c:364 register_command_handler(): registering 'ocd_arm'...
Debug: 65 2 command.c:364 register_command_handler(): registering 'ocd_arm'...
Debug: 66 2 command.c:364 register_command_handler(): registering 'ocd_arm'...
Debug: 67 2 command.c:364 register_command_handler(): registering 'ocd_arm'...
Debug: 68 2 command.c:364 register_command_handler(): registering 'ocd_arm'...
Debug: 69 2 command.c:364 register_command_handler(): registering 'ocd_arm'...
Debug: 70 2 command.c:364 register_command_handler(): registering 'ocd_dap'...
Debug: 71 2 command.c:364 register_command_handler(): registering 'ocd_dap'...
Debug: 72 2 command.c:364 register_command_handler(): registering 'ocd_dap'...
Debug: 73 2 command.c:364 register_command_handler(): registering 'ocd_dap'...
Debug: 74 2 command.c:364 register_command_handler(): registering 'ocd_dap'...
Debug: 75 2 command.c:364 register_command_handler(): registering 'ocd_dap'...
Debug: 76 2 command.c:364 register_command_handler(): registering 'ocd_dap'...
Debug: 77 2 command.c:364 register_command_handler(): registering 'ocd_dap'...
Debug: 78 2 command.c:364 register_command_handler(): registering 'ocd_tpiu'...
Debug: 79 2 command.c:364 register_command_handler(): registering 'ocd_itm'...
Debug: 80 2 command.c:364 register_command_handler(): registering 'ocd_itm'...
Debug: 81 2 command.c:364 register_command_handler(): registering 'ocd_cortex_mX3'...
Debug: 82 2 command.c:364 register_command_handler(): registering 'ocd_cortex_mX3'...
Debug: 83 2 command.c:364 register_command_handler(): registering 'ocd_cortex_mX3'...
Debug: 84 2 command.c:364 register_command_handler(): registering 'ocd_LPC5569.mX3'...
Debug: 85 2 command.c:364 register_command_handler(): registering 'ocd_LPC5569.mX3'...
Debug: 86 2 command.c:364 register_command_handler(): registering 'ocd_LPC5569.mX3'...
Debug: 87 2 command.c:364 register_command_handler(): registering 'ocd_LPC5569.mX3'...
Debug: 88 2 command.c:364 register_command_handler(): registering 'ocd_LPC5569.mX3'...
Debug: 89 2 command.c:364 register_command_handler(): registering 'ocd_LPC5569.mX3'...
Debug: 90 2 command.c:364 register_command_handler(): registering 'ocd_LPC5569.mX3'...
Debug: 91 2 command.c:364 register_command_handler(): registering 'ocd_LPC5569.mX3'...
Debug: 92 2 command.c:364 register_command_handler(): registering 'ocd_LPC5569.mX3'...
Debug: 93 2 command.c:364 register_command_handler(): registering 'ocd_LPC5569.mX3'...
Debug: 94 2 command.c:364 register_command_handler(): registering 'ocd_LPC5569.mX3'...
Debug: 95 2 command.c:364 register_command_handler(): registering 'ocd_LPC5569.mX3'...
Debug: 96 2 command.c:364 register_command_handler(): registering 'ocd_LPC5569.mX3'...
Debug: 97 2 command.c:364 register_command_handler(): registering 'ocd_LPC5569.mX3'...
Debug: 98 2 command.c:364 register_command_handler(): registering 'ocd_LPC5569.mX3'...
Debug: 99 2 command.c:364 register_command_handler(): registering 'ocd_LPC5569.mX3'...
Debug: 100 2 command.c:364 register_command_handler(): registering 'ocd_LPC5569.mX3'...
Debug: 101 2 command.c:364 register_command_handler(): registering 'ocd_LPC5569.mX3'...
Debug: 102 2 command.c:364 register_command_handler(): registering 'ocd_LPC5569.mX3'...
Debug: 103 2 command.c:364 register_command_handler(): registering 'ocd_LPC5569.mX3'...
Debug: 104 2 command.c:364 register_command_handler(): registering 'ocd_LPC5569.mX3'...
Debug: 105 2 command.c:364 register_command_handler(): registering 'ocd_LPC5569.mX3'...
Debug: 106 2 command.c:364 register_command_handler(): registering 'ocd_LPC5569.mX3'...
Debug: 107 2 command.c:364 register_command_handler(): registering 'ocd_LPC5569.mX3'...
Debug: 108 2 command.c:364 register_command_handler(): registering 'ocd_LPC5569.mX3'...
Debug: 109 2 command.c:364 register_command_handler(): registering 'ocd_LPC5569.mX3'...
Debug: 110 2 command.c:364 register_command_handler(): registering 'ocd_LPC5569.mX3'...
Debug: 111 2 command.c:364 register_command_handler(): registering 'ocd_LPC5569.mX3'...
Debug: 112 2 command.c:364 register_command_handler(): registering 'ocd_LPC5569.mX3'...
Debug: 113 2 command.c:364 register_command_handler(): registering 'ocd_LPC5569.mX3'...
Debug: 114 2 command.c:364 register_command_handler(): registering 'ocd_LPC5569.mX3'...
Debug: 115 2 command.c:364 register_command_handler(): registering 'ocd_LPC5569.mX3'...
Debug: 116 2 command.c:364 register_command_handler(): registering 'ocd_LPC5569.mX3'...
Debug: 117 2 command.c:364 register_command_handler(): registering 'ocd_LPC5569.mX3'...
Debug: 118 2 command.c:364 register_command_handler(): registering 'ocd_LPC5569.mX3'...
Debug: 119 2 command.c:364 register_command_handler(): registering 'ocd_LPC5569.mX3'...
Debug: 120 2 command.c:364 register_command_handler(): registering 'ocd_LPC5569.mX3'...
Debug: 121 2 command.c:364 register_command_handler(): registering 'ocd_LPC5569.mX3'...
Debug: 122 2 command.c:364 register_command_handler(): registering 'ocd_LPC5569.mX3'...
Debug: 123 2 command.c:364 register_command_handler(): registering 'ocd_LPC5569.mX3'...
Debug: 124 2 command.c:364 register_command_handler(): registering 'ocd_LPC5569.mX3'...
Debug: 125 2 command.c:364 register_command_handler(): registering 'ocd_LPC5569.mX3'...
Debug: 126 2 command.c:364 register_command_handler(): registering 'ocd_LPC5569.mX3'...
Debug: 127 2 command.c:364 register_command_handler(): registering 'ocd_LPC5569.mX3'...
Debug: 128 2 command.c:364 register_command_handler(): registering 'ocd_LPC5569.mX3'...
Debug: 129 2 command.c:364 register_command_handler(): registering 'ocd_LPC5569.mX3'...
Debug: 130 2 command.c:364 register_command_handler(): registering 'ocd_LPC5569.mX3'...
Debug: 131 3 command.c:143 script_debug(): command - ocd_command ocd_command type ocd_transport select
Debug: 132 3 command.c:143 script_debug(): command - ocd_transport ocd_transport select
Debug: 133 3 command.c:143 script_debug(): command - ocd_command ocd_command type ocd_LPC5569.mX3 configure -work-area-phys 0x20000000 -work-area-size 0x4000 -work-area-backup 0
Debug: 134 3 command.c:143 script_debug(): command - ocd_LPC5569.mX3 ocd_LPC5569.mX3 configure -work-area-phys 0x20000000 -work-area-size 0x4000 -work-area-backup 0
Debug: 135 3 target.c:1901 target_free_all_working_areas_restore(): freeing all working areas
Debug: 136 3 target.c:1901 target_free_all_working_areas_restore(): freeing all working areas
Debug: 137 3 target.c:1901 target_free_all_working_areas_restore(): freeing all working areas
Debug: 138 3 command.c:143 script_debug(): command - ocd_command ocd_command type ocd_transport select
Debug: 139 3 command.c:143 script_debug(): command - ocd_transport ocd_transport select
Debug: 140 3 command.c:143 script_debug(): command - ocd_command ocd_command type ocd_cortex_mX3 reset_config vectreset
Debug: 141 3 command.c:143 script_debug(): command - ocd_cortex_mX3 ocd_cortex_mX3 reset_config vectreset
User : 143 3 command.c:544 command_print(): cortex_mX3 reset_config vectreset
Debug: 144 3 command.c:143 script_debug(): command - ocd_command ocd_command type ocd_LPC5569.mX3 configure -event reset-start 
#	      mww 0x20008000 0xfacefeed
#SW reset
	      mww 0x50000160 0x5a000001
# CSW chip reset
#	      mww 0x4009c000 0x20
	# CPU comes out of reset with MSI_ON | MSI_RDY | MSI Range 6 (4 MHz).
	# Use MSI 24 MHz clock, compliant even with VOS == 2.
	# 3 WS compliant with VOS == 2 and 24 MHz.
#	mww 0x40022000 0x00000103   ;# FLASH_ACR = PRFTBE | 3(Latency)
#	mww 0x40021000 0x00000099   ;# RCC_CR = MSI_ON | MSIRGSEL| MSI Range 10
	# Boost JTAG frequency
#	adapter_khz 4000

Debug: 145 3 command.c:143 script_debug(): command - ocd_LPC5569.mX3 ocd_LPC5569.mX3 configure -event reset-start 
#	      mww 0x20008000 0xfacefeed
#SW reset
	      mww 0x50000160 0x5a000001
# CSW chip reset
#	      mww 0x4009c000 0x20
	# CPU comes out of reset with MSI_ON | MSI_RDY | MSI Range 6 (4 MHz).
	# Use MSI 24 MHz clock, compliant even with VOS == 2.
	# 3 WS compliant with VOS == 2 and 24 MHz.
#	mww 0x40022000 0x00000103   ;# FLASH_ACR = PRFTBE | 3(Latency)
#	mww 0x40021000 0x00000099   ;# RCC_CR = MSI_ON | MSIRGSEL| MSI Range 10
	# Boost JTAG frequency
#	adapter_khz 4000

Debug: 146 4 command.c:143 script_debug(): command - ocd_command ocd_command type ocd_init
Debug: 147 4 command.c:143 script_debug(): command - init ocd_init
Debug: 149 4 command.c:143 script_debug(): command - ocd_command ocd_command type ocd_target init
Debug: 150 4 command.c:143 script_debug(): command - ocd_target ocd_target init
Debug: 152 4 command.c:143 script_debug(): command - ocd_command ocd_command type ocd_target names
Debug: 153 4 command.c:143 script_debug(): command - ocd_target ocd_target names
Debug: 154 4 command.c:143 script_debug(): command - ocd_command ocd_command type ocd_LPC5569.mX3 cget -event gdb-flash-erase-start
Debug: 155 4 command.c:143 script_debug(): command - ocd_LPC5569.mX3 ocd_LPC5569.mX3 cget -event gdb-flash-erase-start
Debug: 156 4 command.c:143 script_debug(): command - ocd_command ocd_command type ocd_LPC5569.mX3 configure -event gdb-flash-erase-start reset init
Debug: 157 4 command.c:143 script_debug(): command - ocd_LPC5569.mX3 ocd_LPC5569.mX3 configure -event gdb-flash-erase-start reset init
Debug: 158 4 command.c:143 script_debug(): command - ocd_command ocd_command type ocd_LPC5569.mX3 cget -event gdb-flash-write-end
Debug: 159 4 command.c:143 script_debug(): command - ocd_LPC5569.mX3 ocd_LPC5569.mX3 cget -event gdb-flash-write-end
Debug: 160 4 command.c:143 script_debug(): command - ocd_command ocd_command type ocd_LPC5569.mX3 configure -event gdb-flash-write-end reset halt
Debug: 161 4 command.c:143 script_debug(): command - ocd_LPC5569.mX3 ocd_LPC5569.mX3 configure -event gdb-flash-write-end reset halt
Debug: 162 4 target.c:1326 handle_target_init_command(): Initializing targets...
Debug: 163 4 command.c:364 register_command_handler(): registering 'ocd_target_request'...
Debug: 164 4 command.c:364 register_command_handler(): registering 'ocd_trace'...
Debug: 165 4 command.c:364 register_command_handler(): registering 'ocd_trace'...
Debug: 166 4 command.c:364 register_command_handler(): registering 'ocd_fast_load_image'...
Debug: 167 4 command.c:364 register_command_handler(): registering 'ocd_fast_load'...
Debug: 168 4 command.c:364 register_command_handler(): registering 'ocd_profile'...
Debug: 169 4 command.c:364 register_command_handler(): registering 'ocd_virt2phys'...
Debug: 170 4 command.c:364 register_command_handler(): registering 'ocd_reg'...
Debug: 171 4 command.c:364 register_command_handler(): registering 'ocd_poll'...
Debug: 172 4 command.c:364 register_command_handler(): registering 'ocd_wait_halt'...
Debug: 173 4 command.c:364 register_command_handler(): registering 'ocd_halt'...
Debug: 174 5 command.c:364 register_command_handler(): registering 'ocd_resume'...
Debug: 175 5 command.c:364 register_command_handler(): registering 'ocd_reset'...
Debug: 176 5 command.c:364 register_command_handler(): registering 'ocd_soft_reset_halt'...
Debug: 177 5 command.c:364 register_command_handler(): registering 'ocd_step'...
Debug: 178 5 command.c:364 register_command_handler(): registering 'ocd_mdw'...
Debug: 179 5 command.c:364 register_command_handler(): registering 'ocd_mdh'...
Debug: 180 5 command.c:364 register_command_handler(): registering 'ocd_mdb'...
Debug: 181 5 command.c:364 register_command_handler(): registering 'ocd_mww'...
Debug: 182 5 command.c:364 register_command_handler(): registering 'ocd_mwh'...
Debug: 183 5 command.c:364 register_command_handler(): registering 'ocd_mwb'...
Debug: 184 5 command.c:364 register_command_handler(): registering 'ocd_bp'...
Debug: 185 5 command.c:364 register_command_handler(): registering 'ocd_rbp'...
Debug: 186 5 command.c:364 register_command_handler(): registering 'ocd_wp'...
Debug: 187 5 command.c:364 register_command_handler(): registering 'ocd_rwp'...
Debug: 188 5 command.c:364 register_command_handler(): registering 'ocd_load_image'...
Debug: 189 5 command.c:364 register_command_handler(): registering 'ocd_dump_image'...
Debug: 190 5 command.c:364 register_command_handler(): registering 'ocd_verify_image_checksum'...
Debug: 191 5 command.c:364 register_command_handler(): registering 'ocd_verify_image'...
Debug: 192 5 command.c:364 register_command_handler(): registering 'ocd_test_image'...
Debug: 193 5 command.c:364 register_command_handler(): registering 'ocd_reset_nag'...
Debug: 194 5 command.c:364 register_command_handler(): registering 'ocd_ps'...
Debug: 195 5 command.c:364 register_command_handler(): registering 'ocd_test_mem_access'...
Info : 196 64 cmsis_dap_usb.c:760 cmsis_dap_get_caps_info(): CMSIS-DAP: SWD  Supported
Info : 197 64 cmsis_dap_usb.c:762 cmsis_dap_get_caps_info(): CMSIS-DAP: JTAG Supported
Info : 198 66 cmsis_dap_usb.c:853 cmsis_dap_swd_open(): CMSIS-DAP: Interface Initialised (SWD)
Info : 199 68 cmsis_dap_usb.c:740 cmsis_dap_get_version_info(): CMSIS-DAP: FW Version = 1.0
Debug: 200 70 cmsis_dap_usb.c:925 cmsis_dap_init(): CMSIS-DAP: Packet Size = 1024
Debug: 201 76 cmsis_dap_usb.c:936 cmsis_dap_init(): CMSIS-DAP: Packet Count = 64
Info : 202 78 cmsis_dap_usb.c:781 cmsis_dap_get_status(): SWCLK/TCK = 1 SWDIO/TMS = 1 TDI = 1 TDO = 1 nTRST = 0 nRESET = 1
Info : 203 88 cmsis_dap_usb.c:979 cmsis_dap_init(): CMSIS-DAP: Interface ready
Debug: 204 88 core.c:1598 adapter_khz_to_speed(): convert khz to interface specific speed value
Debug: 205 88 core.c:1601 adapter_khz_to_speed(): have interface set up
Debug: 206 90 core.c:1598 adapter_khz_to_speed(): convert khz to interface specific speed value
Debug: 207 90 core.c:1601 adapter_khz_to_speed(): have interface set up
Info : 208 90 core.c:1386 adapter_init(): clock speed 500 kHz
Debug: 209 90 openocd.c:140 handle_init_command(): Debug Adapter init complete
Debug: 210 90 command.c:143 script_debug(): command - ocd_command ocd_command type ocd_transport init
Debug: 211 90 command.c:143 script_debug(): command - ocd_transport ocd_transport init
Debug: 213 90 transport.c:239 handle_transport_init(): handle_transport_init
Debug: 214 94 cmsis_dap_usb.c:810 cmsis_dap_swd_switch_seq(): JTAG-to-SWD
Debug: 215 107 cmsis_dap_usb.c:599 cmsis_dap_swd_run_queue(): Executing 2 queued transactions
Debug: 216 107 cmsis_dap_usb.c:622 cmsis_dap_swd_run_queue(): DP read reg 0 0
Debug: 217 107 cmsis_dap_usb.c:622 cmsis_dap_swd_run_queue(): DP write reg 0 1e
Debug: 218 109 cmsis_dap_usb.c:677 cmsis_dap_swd_run_queue(): Read result: 6ba02477
Info : 219 109 adi_v5_swd.c:137 swd_connect(): SWD DPIDR 0x6ba02477
Debug: 220 109 openocd.c:153 handle_init_command(): Examining targets...
Debug: 221 109 target.c:1519 target_call_event_callbacks(): target event 21 (examine-start)
Debug: 222 109 arm_adi_v5.c:603 dap_dp_init():  
Debug: 223 109 cmsis_dap_usb.c:599 cmsis_dap_swd_run_queue(): Executing 2 queued transactions
Debug: 224 109 cmsis_dap_usb.c:622 cmsis_dap_swd_run_queue(): DP write reg 8 0
Debug: 225 109 cmsis_dap_usb.c:622 cmsis_dap_swd_run_queue(): DP read reg 4 0
Debug: 226 111 cmsis_dap_usb.c:677 cmsis_dap_swd_run_queue(): Read result: 40
Debug: 227 111 arm_adi_v5.c:637 dap_dp_init(): DAP: wait CDBGPWRUPACK
Debug: 228 111 arm_adi_v5.h:428 dap_dp_poll_register(): DAP: poll 4, mask 0x20000000, value 0x20000000
Debug: 229 111 cmsis_dap_usb.c:599 cmsis_dap_swd_run_queue(): Executing 4 queued transactions
Debug: 230 111 cmsis_dap_usb.c:622 cmsis_dap_swd_run_queue(): DP write reg 4 20
Debug: 231 111 cmsis_dap_usb.c:622 cmsis_dap_swd_run_queue(): DP read reg 4 0
Debug: 232 111 cmsis_dap_usb.c:622 cmsis_dap_swd_run_queue(): DP write reg 4 50000000
Debug: 233 111 cmsis_dap_usb.c:622 cmsis_dap_swd_run_queue(): DP read reg 4 0
Debug: 234 113 cmsis_dap_usb.c:677 cmsis_dap_swd_run_queue(): Read result: 40
Debug: 235 113 cmsis_dap_usb.c:677 cmsis_dap_swd_run_queue(): Read result: f0000040
Debug: 236 113 arm_adi_v5.c:644 dap_dp_init(): DAP: wait CSYSPWRUPACK
Debug: 237 113 arm_adi_v5.h:428 dap_dp_poll_register(): DAP: poll 4, mask 0x80000000, value 0x80000000
Debug: 238 113 cmsis_dap_usb.c:599 cmsis_dap_swd_run_queue(): Executing 1 queued transactions
Debug: 239 113 cmsis_dap_usb.c:622 cmsis_dap_swd_run_queue(): DP read reg 4 0
Debug: 240 115 cmsis_dap_usb.c:677 cmsis_dap_swd_run_queue(): Read result: f0000040
Debug: 241 115 cmsis_dap_usb.c:599 cmsis_dap_swd_run_queue(): Executing 3 queued transactions
Debug: 242 115 cmsis_dap_usb.c:622 cmsis_dap_swd_run_queue(): DP read reg 4 0
Debug: 243 115 cmsis_dap_usb.c:622 cmsis_dap_swd_run_queue(): DP write reg 4 50000001
Debug: 244 115 cmsis_dap_usb.c:639 cmsis_dap_swd_run_queue(): refusing to enable sticky overrun detection
Debug: 245 115 cmsis_dap_usb.c:622 cmsis_dap_swd_run_queue(): DP read reg 4 0
Debug: 246 117 cmsis_dap_usb.c:677 cmsis_dap_swd_run_queue(): Read result: f0000040
Debug: 247 117 cmsis_dap_usb.c:677 cmsis_dap_swd_run_queue(): Read result: f0000040
Debug: 248 117 cmsis_dap_usb.c:599 cmsis_dap_swd_run_queue(): Executing 3 queued transactions
Debug: 249 117 cmsis_dap_usb.c:622 cmsis_dap_swd_run_queue(): DP write reg 8 f0
Debug: 250 117 cmsis_dap_usb.c:622 cmsis_dap_swd_run_queue(): AP read reg c 0
Debug: 251 117 cmsis_dap_usb.c:622 cmsis_dap_swd_run_queue(): DP read reg c 0
Debug: 252 119 cmsis_dap_usb.c:677 cmsis_dap_swd_run_queue(): Read result: 84770001
Debug: 253 119 cmsis_dap_usb.c:677 cmsis_dap_swd_run_queue(): Read result: 84770001
Debug: 254 119 arm_adi_v5.c:785 dap_find_ap(): Found AHB-AP at AP index: 0 (IDR=0x84770001)
Debug: 255 119 cmsis_dap_usb.c:599 cmsis_dap_swd_run_queue(): Executing 8 queued transactions
Debug: 256 119 cmsis_dap_usb.c:622 cmsis_dap_swd_run_queue(): DP write reg 8 0
Debug: 257 119 cmsis_dap_usb.c:622 cmsis_dap_swd_run_queue(): AP write reg 0 a2000020
Debug: 258 119 cmsis_dap_usb.c:622 cmsis_dap_swd_run_queue(): AP write reg 4 0
Debug: 259 119 cmsis_dap_usb.c:622 cmsis_dap_swd_run_queue(): AP read reg 0 0
Debug: 260 119 cmsis_dap_usb.c:622 cmsis_dap_swd_run_queue(): DP read reg c 0
Debug: 261 119 cmsis_dap_usb.c:622 cmsis_dap_swd_run_queue(): DP write reg 8 f0
Debug: 262 119 cmsis_dap_usb.c:622 cmsis_dap_swd_run_queue(): AP read reg 4 0
Debug: 263 119 cmsis_dap_usb.c:622 cmsis_dap_swd_run_queue(): DP read reg c 0
Debug: 264 122 cmsis_dap_usb.c:677 cmsis_dap_swd_run_queue(): Read result: 2800060
Debug: 265 122 cmsis_dap_usb.c:677 cmsis_dap_swd_run_queue(): Read result: 2800060
Debug: 266 122 cmsis_dap_usb.c:677 cmsis_dap_swd_run_queue(): Read result: 0
Debug: 267 122 cmsis_dap_usb.c:677 cmsis_dap_swd_run_queue(): Read result: 0
Debug: 268 122 arm_adi_v5.c:712 mem_ap_init(): MEM_AP Packed Transfers: enabled
Debug: 269 122 arm_adi_v5.c:723 mem_ap_init(): MEM_AP CFG: large data 0, long address 0, big-endian 0
Debug: 270 122 cmsis_dap_usb.c:599 cmsis_dap_swd_run_queue(): Executing 5 queued transactions
Debug: 271 122 cmsis_dap_usb.c:622 cmsis_dap_swd_run_queue(): DP write reg 8 0
Debug: 272 122 cmsis_dap_usb.c:622 cmsis_dap_swd_run_queue(): AP write reg 4 e000ed00
Debug: 273 122 cmsis_dap_usb.c:622 cmsis_dap_swd_run_queue(): AP write reg 0 a2000022
Debug: 274 122 cmsis_dap_usb.c:622 cmsis_dap_swd_run_queue(): AP read reg c 0
Debug: 275 122 cmsis_dap_usb.c:622 cmsis_dap_swd_run_queue(): DP read reg c 0
Debug: 276 125 cmsis_dap_usb.c:677 cmsis_dap_swd_run_queue(): Read result: 410fd213
Debug: 277 125 cmsis_dap_usb.c:677 cmsis_dap_swd_run_queue(): Read result: 410fd213
Debug: 278 125 target.c:2242 target_read_u32(): address: 0xe000ed00, value: 0x410fd213
Debug: 279 125 cortex_mX3.c:2106 cortex_mX3_examine(): Cortex-M1 r0p3 processor detected
Debug: 280 125 cortex_mX3.c:2114 cortex_mX3_examine(): cpuid: 0x410fd213
Debug: 281 125 target.c:2330 target_write_u32(): address: 0xe000edfc, value: 0x01000000
Debug: 282 125 cmsis_dap_usb.c:599 cmsis_dap_swd_run_queue(): Executing 2 queued transactions
Debug: 283 125 cmsis_dap_usb.c:622 cmsis_dap_swd_run_queue(): AP write reg 4 e000edfc
Debug: 284 125 cmsis_dap_usb.c:622 cmsis_dap_swd_run_queue(): AP write reg c 1000000
Debug: 285 127 cmsis_dap_usb.c:599 cmsis_dap_swd_run_queue(): Executing 3 queued transactions
Debug: 286 127 cmsis_dap_usb.c:622 cmsis_dap_swd_run_queue(): AP write reg 4 e0002000
Debug: 287 127 cmsis_dap_usb.c:622 cmsis_dap_swd_run_queue(): AP read reg c 0
Debug: 288 127 cmsis_dap_usb.c:622 cmsis_dap_swd_run_queue(): DP read reg c 0
Debug: 289 129 cmsis_dap_usb.c:677 cmsis_dap_swd_run_queue(): Read result: 10000080
Debug: 290 129 cmsis_dap_usb.c:677 cmsis_dap_swd_run_queue(): Read result: 10000080
Debug: 291 129 target.c:2242 target_read_u32(): address: 0xe0002000, value: 0x10000080
Debug: 292 129 target.c:2330 target_write_u32(): address: 0xe0002008, value: 0x00000000
Debug: 293 129 cmsis_dap_usb.c:599 cmsis_dap_swd_run_queue(): Executing 2 queued transactions
Debug: 294 129 cmsis_dap_usb.c:622 cmsis_dap_swd_run_queue(): AP write reg 4 e0002008
Debug: 295 129 cmsis_dap_usb.c:622 cmsis_dap_swd_run_queue(): AP write reg c 0
Debug: 296 131 target.c:2330 target_write_u32(): address: 0xe000200c, value: 0x00000000
Debug: 297 131 cmsis_dap_usb.c:599 cmsis_dap_swd_run_queue(): Executing 2 queued transactions
Debug: 298 131 cmsis_dap_usb.c:622 cmsis_dap_swd_run_queue(): AP write reg 4 e000200c
Debug: 299 131 cmsis_dap_usb.c:622 cmsis_dap_swd_run_queue(): AP write reg c 0
Debug: 300 133 target.c:2330 target_write_u32(): address: 0xe0002010, value: 0x00000000
Debug: 301 133 cmsis_dap_usb.c:599 cmsis_dap_swd_run_queue(): Executing 2 queued transactions
Debug: 302 133 cmsis_dap_usb.c:622 cmsis_dap_swd_run_queue(): AP write reg 4 e0002010
Debug: 303 133 cmsis_dap_usb.c:622 cmsis_dap_swd_run_queue(): AP write reg c 0
Debug: 304 135 target.c:2330 target_write_u32(): address: 0xe0002014, value: 0x00000000
Debug: 305 135 cmsis_dap_usb.c:599 cmsis_dap_swd_run_queue(): Executing 2 queued transactions
Debug: 306 135 cmsis_dap_usb.c:622 cmsis_dap_swd_run_queue(): AP write reg 4 e0002014
Debug: 307 135 cmsis_dap_usb.c:622 cmsis_dap_swd_run_queue(): AP write reg c 0
Debug: 308 137 target.c:2330 target_write_u32(): address: 0xe0002018, value: 0x00000000
Debug: 309 137 cmsis_dap_usb.c:599 cmsis_dap_swd_run_queue(): Executing 2 queued transactions
Debug: 310 137 cmsis_dap_usb.c:622 cmsis_dap_swd_run_queue(): AP write reg 4 e0002018
Debug: 311 137 cmsis_dap_usb.c:622 cmsis_dap_swd_run_queue(): AP write reg c 0
Debug: 312 139 target.c:2330 target_write_u32(): address: 0xe000201c, value: 0x00000000
Debug: 313 139 cmsis_dap_usb.c:599 cmsis_dap_swd_run_queue(): Executing 2 queued transactions
Debug: 314 139 cmsis_dap_usb.c:622 cmsis_dap_swd_run_queue(): AP write reg 4 e000201c
Debug: 315 139 cmsis_dap_usb.c:622 cmsis_dap_swd_run_queue(): AP write reg c 0
Debug: 316 141 target.c:2330 target_write_u32(): address: 0xe0002020, value: 0x00000000
Debug: 317 141 cmsis_dap_usb.c:599 cmsis_dap_swd_run_queue(): Executing 2 queued transactions
Debug: 318 141 cmsis_dap_usb.c:622 cmsis_dap_swd_run_queue(): AP write reg 4 e0002020
Debug: 319 141 cmsis_dap_usb.c:622 cmsis_dap_swd_run_queue(): AP write reg c 0
Debug: 320 143 target.c:2330 target_write_u32(): address: 0xe0002024, value: 0x00000000
Debug: 321 143 cmsis_dap_usb.c:599 cmsis_dap_swd_run_queue(): Executing 2 queued transactions
Debug: 322 143 cmsis_dap_usb.c:622 cmsis_dap_swd_run_queue(): AP write reg 4 e0002024
Debug: 323 143 cmsis_dap_usb.c:622 cmsis_dap_swd_run_queue(): AP write reg c 0
Debug: 324 145 cortex_mX3.c:2205 cortex_mX3_examine(): FPB fpcr 0x10000080, numcode 8, numlit 0
Debug: 325 145 cmsis_dap_usb.c:599 cmsis_dap_swd_run_queue(): Executing 3 queued transactions
Debug: 326 145 cmsis_dap_usb.c:622 cmsis_dap_swd_run_queue(): AP write reg 4 e0001000
Debug: 327 145 cmsis_dap_usb.c:622 cmsis_dap_swd_run_queue(): AP read reg c 0
Debug: 328 145 cmsis_dap_usb.c:622 cmsis_dap_swd_run_queue(): DP read reg c 0
Debug: 329 147 cmsis_dap_usb.c:677 cmsis_dap_swd_run_queue(): Read result: 40000000
Debug: 330 147 cmsis_dap_usb.c:677 cmsis_dap_swd_run_queue(): Read result: 40000000
Debug: 331 147 target.c:2242 target_read_u32(): address: 0xe0001000, value: 0x40000000
Debug: 332 147 target.c:2330 target_write_u32(): address: 0xe0001028, value: 0x00000000
Debug: 333 147 cmsis_dap_usb.c:599 cmsis_dap_swd_run_queue(): Executing 2 queued transactions
Debug: 334 147 cmsis_dap_usb.c:622 cmsis_dap_swd_run_queue(): AP write reg 4 e0001028
Debug: 335 147 cmsis_dap_usb.c:622 cmsis_dap_swd_run_queue(): AP write reg c 0
Debug: 336 149 target.c:2330 target_write_u32(): address: 0xe0001038, value: 0x00000000
Debug: 337 149 cmsis_dap_usb.c:599 cmsis_dap_swd_run_queue(): Executing 2 queued transactions
Debug: 338 149 cmsis_dap_usb.c:622 cmsis_dap_swd_run_queue(): AP write reg 4 e0001038
Debug: 339 149 cmsis_dap_usb.c:622 cmsis_dap_swd_run_queue(): AP write reg c 0
Debug: 340 151 target.c:2330 target_write_u32(): address: 0xe0001048, value: 0x00000000
Debug: 341 151 cmsis_dap_usb.c:599 cmsis_dap_swd_run_queue(): Executing 2 queued transactions
Debug: 342 151 cmsis_dap_usb.c:622 cmsis_dap_swd_run_queue(): AP write reg 4 e0001048
Debug: 343 151 cmsis_dap_usb.c:622 cmsis_dap_swd_run_queue(): AP write reg c 0
Debug: 344 153 target.c:2330 target_write_u32(): address: 0xe0001058, value: 0x00000000
Debug: 345 153 cmsis_dap_usb.c:599 cmsis_dap_swd_run_queue(): Executing 2 queued transactions
Debug: 346 153 cmsis_dap_usb.c:622 cmsis_dap_swd_run_queue(): AP write reg 4 e0001058
Debug: 347 153 cmsis_dap_usb.c:622 cmsis_dap_swd_run_queue(): AP write reg c 0
Debug: 348 156 cortex_mX3.c:2016 cortex_mX3_dwt_setup(): DWT dwtcr 0x40000000, comp 4, watch/trigger
Info : 349 156 cortex_mX3.c:2215 cortex_mX3_examine(): LPC5569.mX3: hardware has 8 breakpoints, 4 watchpoints
Debug: 350 156 target.c:1519 target_call_event_callbacks(): target event 22 (examine-end)
Debug: 351 156 command.c:143 script_debug(): command - ocd_command ocd_command type ocd_flash init
Debug: 352 156 command.c:143 script_debug(): command - ocd_flash ocd_flash init
Debug: 353 156 cmsis_dap_usb.c:599 cmsis_dap_swd_run_queue(): Executing 5 queued transactions
Debug: 354 156 cmsis_dap_usb.c:622 cmsis_dap_swd_run_queue(): AP write reg 0 a2000002
Debug: 355 156 cmsis_dap_usb.c:622 cmsis_dap_swd_run_queue(): AP write reg 4 e000edf0
Debug: 356 156 cmsis_dap_usb.c:622 cmsis_dap_swd_run_queue(): DP write reg 8 10
Debug: 357 156 cmsis_dap_usb.c:622 cmsis_dap_swd_run_queue(): AP read reg 0 0
Debug: 358 156 cmsis_dap_usb.c:622 cmsis_dap_swd_run_queue(): DP read reg c 0
Debug: 359 158 cmsis_dap_usb.c:677 cmsis_dap_swd_run_queue(): Read result: 3140000
Debug: 360 158 cmsis_dap_usb.c:677 cmsis_dap_swd_run_queue(): Read result: 3140000
Debug: 362 158 tcl.c:1099 handle_flash_init_command(): Initializing flash devices...
Debug: 363 158 command.c:143 script_debug(): command - ocd_command ocd_command type ocd_mflash init
Debug: 364 158 command.c:143 script_debug(): command - ocd_mflash ocd_mflash init
Debug: 365 158 cmsis_dap_usb.c:599 cmsis_dap_swd_run_queue(): Executing 2 queued transactions
Debug: 366 158 cmsis_dap_usb.c:622 cmsis_dap_swd_run_queue(): AP read reg 0 0
Debug: 367 158 cmsis_dap_usb.c:622 cmsis_dap_swd_run_queue(): DP read reg c 0
Debug: 368 160 cmsis_dap_usb.c:677 cmsis_dap_swd_run_queue(): Read result: 140000
Debug: 369 160 cmsis_dap_usb.c:677 cmsis_dap_swd_run_queue(): Read result: 140000
Debug: 370 160 cortex_mX3.c:529 cortex_mX3_poll(): Exit from reset with dcb_dhcsr 0x140000
Debug: 371 160 cmsis_dap_usb.c:599 cmsis_dap_swd_run_queue(): Executing 2 queued transactions
Debug: 372 160 cmsis_dap_usb.c:622 cmsis_dap_swd_run_queue(): AP read reg c 0
Debug: 373 160 cmsis_dap_usb.c:622 cmsis_dap_swd_run_queue(): DP read reg c 0
Debug: 374 162 cmsis_dap_usb.c:677 cmsis_dap_swd_run_queue(): Read result: 1100000
Debug: 375 162 cmsis_dap_usb.c:677 cmsis_dap_swd_run_queue(): Read result: 1100000
Debug: 376 162 cortex_mX3.c:233 cortex_mX3_endreset_event(): DCB_DEMCR = 0x01100000
Debug: 377 162 cmsis_dap_usb.c:599 cmsis_dap_swd_run_queue(): Executing 3 queued transactions
Debug: 378 162 cmsis_dap_usb.c:622 cmsis_dap_swd_run_queue(): AP write reg 8 0
Debug: 379 162 cmsis_dap_usb.c:622 cmsis_dap_swd_run_queue(): AP read reg 0 0
Debug: 380 162 cmsis_dap_usb.c:622 cmsis_dap_swd_run_queue(): DP read reg c 0
Debug: 381 164 cmsis_dap_usb.c:677 cmsis_dap_swd_run_queue(): Read result: 140000
Debug: 382 164 cmsis_dap_usb.c:677 cmsis_dap_swd_run_queue(): Read result: 140000
Debug: 383 164 cmsis_dap_usb.c:599 cmsis_dap_swd_run_queue(): Executing 2 queued transactions
Debug: 384 164 cmsis_dap_usb.c:622 cmsis_dap_swd_run_queue(): AP write reg 0 a05f0001
Debug: 385 164 cmsis_dap_usb.c:622 cmsis_dap_swd_run_queue(): AP write reg 0 a05f0001
Debug: 386 166 target.c:2330 target_write_u32(): address: 0xe0002000, value: 0x00000003
Debug: 387 166 cmsis_dap_usb.c:599 cmsis_dap_swd_run_queue(): Executing 5 queued transactions
Debug: 388 166 cmsis_dap_usb.c:622 cmsis_dap_swd_run_queue(): AP write reg c 1000000
Debug: 389 166 cmsis_dap_usb.c:622 cmsis_dap_swd_run_queue(): DP write reg 8 0
Debug: 390 166 cmsis_dap_usb.c:622 cmsis_dap_swd_run_queue(): AP write reg 4 e0002000
Debug: 391 166 cmsis_dap_usb.c:622 cmsis_dap_swd_run_queue(): AP write reg 0 a2000022
Debug: 392 166 cmsis_dap_usb.c:622 cmsis_dap_swd_run_queue(): AP write reg c 3
Debug: 393 168 cmsis_dap_usb.c:599 cmsis_dap_swd_run_queue(): Executing 3 queued transactions
Debug: 394 168 cmsis_dap_usb.c:622 cmsis_dap_swd_run_queue(): AP write reg 4 e0002000
Debug: 395 168 cmsis_dap_usb.c:622 cmsis_dap_swd_run_queue(): AP read reg c 0
Debug: 396 168 cmsis_dap_usb.c:622 cmsis_dap_swd_run_queue(): DP read reg c 0
Debug: 397 170 cmsis_dap_usb.c:677 cmsis_dap_swd_run_queue(): Read result: 10000081
Debug: 398 170 cmsis_dap_usb.c:677 cmsis_dap_swd_run_queue(): Read result: 10000081
Debug: 399 170 target.c:2242 target_read_u32(): address: 0xe0002000, value: 0x10000081
Debug: 400 170 target.c:2330 target_write_u32(): address: 0xe0002008, value: 0x00000000
Debug: 401 170 cmsis_dap_usb.c:599 cmsis_dap_swd_run_queue(): Executing 2 queued transactions
Debug: 402 170 cmsis_dap_usb.c:622 cmsis_dap_swd_run_queue(): AP write reg 4 e0002008
Debug: 403 170 cmsis_dap_usb.c:622 cmsis_dap_swd_run_queue(): AP write reg c 0
Debug: 404 172 target.c:2330 target_write_u32(): address: 0xe000200c, value: 0x00000000
Debug: 405 172 cmsis_dap_usb.c:599 cmsis_dap_swd_run_queue(): Executing 2 queued transactions
Debug: 406 172 cmsis_dap_usb.c:622 cmsis_dap_swd_run_queue(): AP write reg 4 e000200c
Debug: 407 172 cmsis_dap_usb.c:622 cmsis_dap_swd_run_queue(): AP write reg c 0
Debug: 408 174 target.c:2330 target_write_u32(): address: 0xe0002010, value: 0x00000000
Debug: 409 174 cmsis_dap_usb.c:599 cmsis_dap_swd_run_queue(): Executing 2 queued transactions
Debug: 410 174 cmsis_dap_usb.c:622 cmsis_dap_swd_run_queue(): AP write reg 4 e0002010
Debug: 411 174 cmsis_dap_usb.c:622 cmsis_dap_swd_run_queue(): AP write reg c 0
Debug: 412 176 target.c:2330 target_write_u32(): address: 0xe0002014, value: 0x00000000
Debug: 413 176 cmsis_dap_usb.c:599 cmsis_dap_swd_run_queue(): Executing 2 queued transactions
Debug: 414 176 cmsis_dap_usb.c:622 cmsis_dap_swd_run_queue(): AP write reg 4 e0002014
Debug: 415 176 cmsis_dap_usb.c:622 cmsis_dap_swd_run_queue(): AP write reg c 0
Debug: 416 178 target.c:2330 target_write_u32(): address: 0xe0002018, value: 0x00000000
Debug: 417 178 cmsis_dap_usb.c:599 cmsis_dap_swd_run_queue(): Executing 2 queued transactions
Debug: 418 178 cmsis_dap_usb.c:622 cmsis_dap_swd_run_queue(): AP write reg 4 e0002018
Debug: 419 178 cmsis_dap_usb.c:622 cmsis_dap_swd_run_queue(): AP write reg c 0
Debug: 420 180 target.c:2330 target_write_u32(): address: 0xe000201c, value: 0x00000000
Debug: 421 180 cmsis_dap_usb.c:599 cmsis_dap_swd_run_queue(): Executing 2 queued transactions
Debug: 422 180 cmsis_dap_usb.c:622 cmsis_dap_swd_run_queue(): AP write reg 4 e000201c
Debug: 423 180 cmsis_dap_usb.c:622 cmsis_dap_swd_run_queue(): AP write reg c 0
Debug: 424 182 target.c:2330 target_write_u32(): address: 0xe0002020, value: 0x00000000
Debug: 425 182 cmsis_dap_usb.c:599 cmsis_dap_swd_run_queue(): Executing 2 queued transactions
Debug: 426 182 cmsis_dap_usb.c:622 cmsis_dap_swd_run_queue(): AP write reg 4 e0002020
Debug: 427 182 cmsis_dap_usb.c:622 cmsis_dap_swd_run_queue(): AP write reg c 0
Debug: 428 184 target.c:2330 target_write_u32(): address: 0xe0002024, value: 0x00000000
Debug: 429 184 cmsis_dap_usb.c:599 cmsis_dap_swd_run_queue(): Executing 2 queued transactions
Debug: 430 184 cmsis_dap_usb.c:622 cmsis_dap_swd_run_queue(): AP write reg 4 e0002024
Debug: 431 184 cmsis_dap_usb.c:622 cmsis_dap_swd_run_queue(): AP write reg c 0
Debug: 432 187 target.c:2330 target_write_u32(): address: 0xe0001020, value: 0x00000000
Debug: 433 187 cmsis_dap_usb.c:599 cmsis_dap_swd_run_queue(): Executing 2 queued transactions
Debug: 434 187 cmsis_dap_usb.c:622 cmsis_dap_swd_run_queue(): AP write reg 4 e0001020
Debug: 435 187 cmsis_dap_usb.c:622 cmsis_dap_swd_run_queue(): AP write reg c 0
Debug: 436 189 target.c:2330 target_write_u32(): address: 0xe0001024, value: 0x00000000
Debug: 437 189 cmsis_dap_usb.c:599 cmsis_dap_swd_run_queue(): Executing 2 queued transactions
Debug: 438 189 cmsis_dap_usb.c:622 cmsis_dap_swd_run_queue(): AP write reg 4 e0001024
Debug: 439 189 cmsis_dap_usb.c:622 cmsis_dap_swd_run_queue(): AP write reg c 0
Debug: 440 191 target.c:2330 target_write_u32(): address: 0xe0001028, value: 0x00000000
Debug: 441 191 cmsis_dap_usb.c:599 cmsis_dap_swd_run_queue(): Executing 2 queued transactions
Debug: 442 191 cmsis_dap_usb.c:622 cmsis_dap_swd_run_queue(): AP write reg 4 e0001028
Debug: 443 191 cmsis_dap_usb.c:622 cmsis_dap_swd_run_queue(): AP write reg c 0
Debug: 444 193 target.c:2330 target_write_u32(): address: 0xe0001030, value: 0x00000000
Debug: 445 193 cmsis_dap_usb.c:599 cmsis_dap_swd_run_queue(): Executing 2 queued transactions
Debug: 446 193 cmsis_dap_usb.c:622 cmsis_dap_swd_run_queue(): AP write reg 4 e0001030
Debug: 447 193 cmsis_dap_usb.c:622 cmsis_dap_swd_run_queue(): AP write reg c 0
Debug: 448 195 target.c:2330 target_write_u32(): address: 0xe0001034, value: 0x00000000
Debug: 449 195 cmsis_dap_usb.c:599 cmsis_dap_swd_run_queue(): Executing 2 queued transactions
Debug: 450 195 cmsis_dap_usb.c:622 cmsis_dap_swd_run_queue(): AP write reg 4 e0001034
Debug: 451 195 cmsis_dap_usb.c:622 cmsis_dap_swd_run_queue(): AP write reg c 0
Debug: 452 197 target.c:2330 target_write_u32(): address: 0xe0001038, value: 0x00000000
Debug: 453 197 cmsis_dap_usb.c:599 cmsis_dap_swd_run_queue(): Executing 2 queued transactions
Debug: 454 197 cmsis_dap_usb.c:622 cmsis_dap_swd_run_queue(): AP write reg 4 e0001038
Debug: 455 197 cmsis_dap_usb.c:622 cmsis_dap_swd_run_queue(): AP write reg c 0
Debug: 456 199 target.c:2330 target_write_u32(): address: 0xe0001040, value: 0x00000000
Debug: 457 199 cmsis_dap_usb.c:599 cmsis_dap_swd_run_queue(): Executing 2 queued transactions
Debug: 458 199 cmsis_dap_usb.c:622 cmsis_dap_swd_run_queue(): AP write reg 4 e0001040
Debug: 459 199 cmsis_dap_usb.c:622 cmsis_dap_swd_run_queue(): AP write reg c 0
Debug: 460 201 target.c:2330 target_write_u32(): address: 0xe0001044, value: 0x00000000
Debug: 461 201 cmsis_dap_usb.c:599 cmsis_dap_swd_run_queue(): Executing 2 queued transactions
Debug: 462 201 cmsis_dap_usb.c:622 cmsis_dap_swd_run_queue(): AP write reg 4 e0001044
Debug: 463 201 cmsis_dap_usb.c:622 cmsis_dap_swd_run_queue(): AP write reg c 0
Debug: 464 203 target.c:2330 target_write_u32(): address: 0xe0001048, value: 0x00000000
Debug: 465 203 cmsis_dap_usb.c:599 cmsis_dap_swd_run_queue(): Executing 2 queued transactions
Debug: 466 203 cmsis_dap_usb.c:622 cmsis_dap_swd_run_queue(): AP write reg 4 e0001048
Debug: 467 203 cmsis_dap_usb.c:622 cmsis_dap_swd_run_queue(): AP write reg c 0
Debug: 468 205 target.c:2330 target_write_u32(): address: 0xe0001050, value: 0x00000000
Debug: 469 205 cmsis_dap_usb.c:599 cmsis_dap_swd_run_queue(): Executing 2 queued transactions
Debug: 470 205 cmsis_dap_usb.c:622 cmsis_dap_swd_run_queue(): AP write reg 4 e0001050
Debug: 471 205 cmsis_dap_usb.c:622 cmsis_dap_swd_run_queue(): AP write reg c 0
Debug: 472 207 target.c:2330 target_write_u32(): address: 0xe0001054, value: 0x00000000
Debug: 473 207 cmsis_dap_usb.c:599 cmsis_dap_swd_run_queue(): Executing 2 queued transactions
Debug: 474 207 cmsis_dap_usb.c:622 cmsis_dap_swd_run_queue(): AP write reg 4 e0001054
Debug: 475 207 cmsis_dap_usb.c:622 cmsis_dap_swd_run_queue(): AP write reg c 0
Debug: 476 209 target.c:2330 target_write_u32(): address: 0xe0001058, value: 0x00000000
Debug: 477 209 cmsis_dap_usb.c:599 cmsis_dap_swd_run_queue(): Executing 2 queued transactions
Debug: 478 209 cmsis_dap_usb.c:622 cmsis_dap_swd_run_queue(): AP write reg 4 e0001058
Debug: 479 209 cmsis_dap_usb.c:622 cmsis_dap_swd_run_queue(): AP write reg c 0
Debug: 480 211 cmsis_dap_usb.c:599 cmsis_dap_swd_run_queue(): Executing 0 queued transactions
Debug: 481 211 cmsis_dap_usb.c:599 cmsis_dap_swd_run_queue(): Executing 5 queued transactions
Debug: 482 211 cmsis_dap_usb.c:622 cmsis_dap_swd_run_queue(): AP write reg 0 a2000002
Debug: 483 211 cmsis_dap_usb.c:622 cmsis_dap_swd_run_queue(): AP write reg 4 e000edf0
Debug: 484 211 cmsis_dap_usb.c:622 cmsis_dap_swd_run_queue(): DP write reg 8 10
Debug: 485 211 cmsis_dap_usb.c:622 cmsis_dap_swd_run_queue(): AP read reg 0 0
Debug: 486 211 cmsis_dap_usb.c:622 cmsis_dap_swd_run_queue(): DP read reg c 0
Debug: 487 213 cmsis_dap_usb.c:677 cmsis_dap_swd_run_queue(): Read result: 140001
Debug: 488 213 cmsis_dap_usb.c:677 cmsis_dap_swd_run_queue(): Read result: 140001
Debug: 490 213 mflash.c:1377 handle_mflash_init_command(): Initializing mflash devices...
Debug: 491 213 command.c:143 script_debug(): command - ocd_command ocd_command type ocd_nand init
Debug: 492 213 command.c:143 script_debug(): command - ocd_nand ocd_nand init
Debug: 493 213 cmsis_dap_usb.c:599 cmsis_dap_swd_run_queue(): Executing 2 queued transactions
Debug: 494 213 cmsis_dap_usb.c:622 cmsis_dap_swd_run_queue(): AP read reg 0 0
Debug: 495 213 cmsis_dap_usb.c:622 cmsis_dap_swd_run_queue(): DP read reg c 0
Debug: 496 215 cmsis_dap_usb.c:677 cmsis_dap_swd_run_queue(): Read result: 140001
Debug: 497 215 cmsis_dap_usb.c:677 cmsis_dap_swd_run_queue(): Read result: 140001
Debug: 499 215 tcl.c:497 handle_nand_init_command(): Initializing NAND devices...
Debug: 500 215 command.c:143 script_debug(): command - ocd_command ocd_command type ocd_pld init
Debug: 501 215 command.c:143 script_debug(): command - ocd_pld ocd_pld init
Debug: 502 215 cmsis_dap_usb.c:599 cmsis_dap_swd_run_queue(): Executing 2 queued transactions
Debug: 503 215 cmsis_dap_usb.c:622 cmsis_dap_swd_run_queue(): AP read reg 0 0
Debug: 504 215 cmsis_dap_usb.c:622 cmsis_dap_swd_run_queue(): DP read reg c 0
Debug: 505 218 cmsis_dap_usb.c:677 cmsis_dap_swd_run_queue(): Read result: 140001
Debug: 506 218 cmsis_dap_usb.c:677 cmsis_dap_swd_run_queue(): Read result: 140001
Debug: 508 218 pld.c:205 handle_pld_init_command(): Initializing PLDs...
Debug: 509 318 cmsis_dap_usb.c:599 cmsis_dap_swd_run_queue(): Executing 2 queued transactions
Debug: 510 318 cmsis_dap_usb.c:622 cmsis_dap_swd_run_queue(): AP read reg 0 0
Debug: 511 318 cmsis_dap_usb.c:622 cmsis_dap_swd_run_queue(): DP read reg c 0
Debug: 512 320 cmsis_dap_usb.c:677 cmsis_dap_swd_run_queue(): Read result: 140001
Debug: 513 320 cmsis_dap_usb.c:677 cmsis_dap_swd_run_queue(): Read result: 140001
Debug: 514 420 cmsis_dap_usb.c:599 cmsis_dap_swd_run_queue(): Executing 2 queued transactions
Debug: 515 420 cmsis_dap_usb.c:622 cmsis_dap_swd_run_queue(): AP read reg 0 0
Debug: 516 420 cmsis_dap_usb.c:622 cmsis_dap_swd_run_queue(): DP read reg c 0
Debug: 517 422 cmsis_dap_usb.c:677 cmsis_dap_swd_run_queue(): Read result: 140001
Debug: 518 422 cmsis_dap_usb.c:677 cmsis_dap_swd_run_queue(): Read result: 140001
Debug: 519 522 cmsis_dap_usb.c:599 cmsis_dap_swd_run_queue(): Executing 2 queued transactions
Debug: 520 522 cmsis_dap_usb.c:622 cmsis_dap_swd_run_queue(): AP read reg 0 0
Debug: 521 522 cmsis_dap_usb.c:622 cmsis_dap_swd_run_queue(): DP read reg c 0
Debug: 522 524 cmsis_dap_usb.c:677 cmsis_dap_swd_run_queue(): Read result: 140001
Debug: 523 524 cmsis_dap_usb.c:677 cmsis_dap_swd_run_queue(): Read result: 140001
Debug: 524 624 cmsis_dap_usb.c:599 cmsis_dap_swd_run_queue(): Executing 2 queued transactions
Debug: 525 624 cmsis_dap_usb.c:622 cmsis_dap_swd_run_queue(): AP read reg 0 0
Debug: 526 624 cmsis_dap_usb.c:622 cmsis_dap_swd_run_queue(): DP read reg c 0
Debug: 527 626 cmsis_dap_usb.c:677 cmsis_dap_swd_run_queue(): Read result: 140001
Debug: 528 626 cmsis_dap_usb.c:677 cmsis_dap_swd_run_queue(): Read result: 140001
Debug: 529 726 cmsis_dap_usb.c:599 cmsis_dap_swd_run_queue(): Executing 2 queued transactions
Debug: 530 726 cmsis_dap_usb.c:622 cmsis_dap_swd_run_queue(): AP read reg 0 0
Debug: 531 726 cmsis_dap_usb.c:622 cmsis_dap_swd_run_queue(): DP read reg c 0
Debug: 532 728 cmsis_dap_usb.c:677 cmsis_dap_swd_run_queue(): Read result: 140001
Debug: 533 728 cmsis_dap_usb.c:677 cmsis_dap_swd_run_queue(): Read result: 140001
Debug: 534 828 cmsis_dap_usb.c:599 cmsis_dap_swd_run_queue(): Executing 2 queued transactions
Debug: 535 828 cmsis_dap_usb.c:622 cmsis_dap_swd_run_queue(): AP read reg 0 0
Debug: 536 828 cmsis_dap_usb.c:622 cmsis_dap_swd_run_queue(): DP read reg c 0
Debug: 537 830 cmsis_dap_usb.c:677 cmsis_dap_swd_run_queue(): Read result: 140001
Debug: 538 830 cmsis_dap_usb.c:677 cmsis_dap_swd_run_queue(): Read result: 140001
Debug: 539 930 cmsis_dap_usb.c:599 cmsis_dap_swd_run_queue(): Executing 2 queued transactions
Debug: 540 930 cmsis_dap_usb.c:622 cmsis_dap_swd_run_queue(): AP read reg 0 0
Debug: 541 930 cmsis_dap_usb.c:622 cmsis_dap_swd_run_queue(): DP read reg c 0
Debug: 542 932 cmsis_dap_usb.c:677 cmsis_dap_swd_run_queue(): Read result: 140001
Debug: 543 932 cmsis_dap_usb.c:677 cmsis_dap_swd_run_queue(): Read result: 140001
Debug: 544 1032 cmsis_dap_usb.c:599 cmsis_dap_swd_run_queue(): Executing 2 queued transactions
Debug: 545 1032 cmsis_dap_usb.c:622 cmsis_dap_swd_run_queue(): AP read reg 0 0
Debug: 546 1032 cmsis_dap_usb.c:622 cmsis_dap_swd_run_queue(): DP read reg c 0
Debug: 547 1034 cmsis_dap_usb.c:677 cmsis_dap_swd_run_queue(): Read result: 140001
Debug: 548 1034 cmsis_dap_usb.c:677 cmsis_dap_swd_run_queue(): Read result: 140001
Debug: 549 1134 cmsis_dap_usb.c:599 cmsis_dap_swd_run_queue(): Executing 2 queued transactions
Debug: 550 1134 cmsis_dap_usb.c:622 cmsis_dap_swd_run_queue(): AP read reg 0 0
Debug: 551 1134 cmsis_dap_usb.c:622 cmsis_dap_swd_run_queue(): DP read reg c 0
Debug: 552 1136 cmsis_dap_usb.c:677 cmsis_dap_swd_run_queue(): Read result: 140001
Debug: 553 1136 cmsis_dap_usb.c:677 cmsis_dap_swd_run_queue(): Read result: 140001
Debug: 554 1236 cmsis_dap_usb.c:599 cmsis_dap_swd_run_queue(): Executing 2 queued transactions
Debug: 555 1236 cmsis_dap_usb.c:622 cmsis_dap_swd_run_queue(): AP read reg 0 0
Debug: 556 1236 cmsis_dap_usb.c:622 cmsis_dap_swd_run_queue(): DP read reg c 0
Debug: 557 1238 cmsis_dap_usb.c:677 cmsis_dap_swd_run_queue(): Read result: 140001
Debug: 558 1238 cmsis_dap_usb.c:677 cmsis_dap_swd_run_queue(): Read result: 140001
Debug: 559 1338 cmsis_dap_usb.c:599 cmsis_dap_swd_run_queue(): Executing 2 queued transactions
Debug: 560 1338 cmsis_dap_usb.c:622 cmsis_dap_swd_run_queue(): AP read reg 0 0
Debug: 561 1338 cmsis_dap_usb.c:622 cmsis_dap_swd_run_queue(): DP read reg c 0
Debug: 562 1340 cmsis_dap_usb.c:677 cmsis_dap_swd_run_queue(): Read result: 140001
Debug: 563 1340 cmsis_dap_usb.c:677 cmsis_dap_swd_run_queue(): Read result: 140001
Debug: 564 1440 cmsis_dap_usb.c:599 cmsis_dap_swd_run_queue(): Executing 2 queued transactions
Debug: 565 1440 cmsis_dap_usb.c:622 cmsis_dap_swd_run_queue(): AP read reg 0 0
Debug: 566 1440 cmsis_dap_usb.c:622 cmsis_dap_swd_run_queue(): DP read reg c 0
Debug: 567 1442 cmsis_dap_usb.c:677 cmsis_dap_swd_run_queue(): Read result: 140001
Debug: 568 1442 cmsis_dap_usb.c:677 cmsis_dap_swd_run_queue(): Read result: 140001
Debug: 569 1542 cmsis_dap_usb.c:599 cmsis_dap_swd_run_queue(): Executing 2 queued transactions
Debug: 570 1542 cmsis_dap_usb.c:622 cmsis_dap_swd_run_queue(): AP read reg 0 0
Debug: 571 1542 cmsis_dap_usb.c:622 cmsis_dap_swd_run_queue(): DP read reg c 0
Debug: 572 1544 cmsis_dap_usb.c:677 cmsis_dap_swd_run_queue(): Read result: 140001
Debug: 573 1544 cmsis_dap_usb.c:677 cmsis_dap_swd_run_queue(): Read result: 140001
Debug: 574 1644 cmsis_dap_usb.c:599 cmsis_dap_swd_run_queue(): Executing 2 queued transactions
Debug: 575 1644 cmsis_dap_usb.c:622 cmsis_dap_swd_run_queue(): AP read reg 0 0
