Script started on Thu 31 Oct 2019 11:50:20 AM PDT
]0;root@gravitar: /usr/local/src/openocd-0.10.1/tclroot@gravitar:/usr/local/src/openocd-0.10.1/tcl# ../src/openocd -d -f board/blue pillF103.cfg
Open On-Chip Debugger 0.10.0
Licensed under GNU GPL v2
For bug reports, read
	http://openocd.org/doc/doxygen/bugs.html
User : 13 1 command.c:544 command_print(): debug_level: 3
Debug: 14 2 options.c:181 add_default_dirs(): bindir=/usr/local/bin
Debug: 15 2 options.c:182 add_default_dirs(): pkgdatadir=/usr/local/share/openocd
Debug: 16 2 options.c:183 add_default_dirs(): exepath=/usr/local/src/openocd-0.10.1/src
Debug: 17 2 options.c:184 add_default_dirs(): bin2data=../share/openocd
Debug: 18 2 configuration.c:42 add_script_search_dir(): adding /home/hrainnie/.openocd
Debug: 19 2 configuration.c:42 add_script_search_dir(): adding /usr/local/src/openocd-0.10.1/src/../share/openocd/site
Debug: 20 2 configuration.c:42 add_script_search_dir(): adding /usr/local/src/openocd-0.10.1/src/../share/openocd/scripts
Debug: 21 3 configuration.c:82 find_file(): found board/bluepillF103.cfg
Debug: 22 3 configuration.c:82 find_file(): found interface/stlink-v2.cfg
Debug: 23 3 command.c:143 script_debug(): command - ocd_command ocd_command type ocd_interface hla
Debug: 24 3 command.c:143 script_debug(): command - interface ocd_interface hla
Debug: 26 3 command.c:364 register_command_handler(): registering 'ocd_hla_device_desc'...
Debug: 27 3 command.c:364 register_command_handler(): registering 'ocd_hla_serial'...
Debug: 28 3 command.c:364 register_command_handler(): registering 'ocd_hla_layout'...
Debug: 29 3 command.c:364 register_command_handler(): registering 'ocd_hla_vid_pid'...
Debug: 30 4 command.c:364 register_command_handler(): registering 'ocd_hla_command'...
Debug: 31 4 command.c:143 script_debug(): command - ocd_command ocd_command type ocd_hla_layout stlink
Debug: 32 4 command.c:143 script_debug(): command - hla_layout ocd_hla_layout stlink
Debug: 34 4 hla_interface.c:239 hl_interface_handle_layout_command(): hl_interface_handle_layout_command
Debug: 35 4 command.c:143 script_debug(): command - ocd_command ocd_command type ocd_hla_device_desc ST-LINK/V2
Debug: 36 4 command.c:143 script_debug(): command - hla_device_desc ocd_hla_device_desc ST-LINK/V2
Debug: 38 4 hla_interface.c:213 hl_interface_handle_device_desc_command(): hl_interface_handle_device_desc_command
Debug: 39 4 command.c:143 script_debug(): command - ocd_command ocd_command type ocd_hla_vid_pid 0x0483 0x3748
Debug: 40 4 command.c:143 script_debug(): command - hla_vid_pid ocd_hla_vid_pid 0x0483 0x3748
Debug: 42 4 hla_interface.c:267 hl_interface_handle_vid_pid_command(): hl_interface_handle_vid_pid_command
Debug: 43 4 command.c:143 script_debug(): command - ocd_command ocd_command type ocd_transport select hla_swd
Debug: 44 4 command.c:143 script_debug(): command - ocd_transport ocd_transport select hla_swd
Debug: 45 5 hla_transport.c:191 hl_transport_select(): hl_transport_select
Debug: 46 5 command.c:364 register_command_handler(): registering 'ocd_hla'...
Debug: 47 5 command.c:364 register_command_handler(): registering 'ocd_jtag'...
Debug: 48 5 command.c:364 register_command_handler(): registering 'ocd_jtag'...
Debug: 49 5 command.c:364 register_command_handler(): registering 'ocd_jtag'...
Debug: 50 5 command.c:364 register_command_handler(): registering 'ocd_jtag'...
Debug: 51 5 command.c:364 register_command_handler(): registering 'ocd_jtag'...
Debug: 52 5 command.c:364 register_command_handler(): registering 'ocd_jtag'...
Debug: 53 5 command.c:364 register_command_handler(): registering 'ocd_jtag'...
Debug: 54 5 command.c:364 register_command_handler(): registering 'ocd_jtag'...
Debug: 55 5 command.c:364 register_command_handler(): registering 'ocd_jtag'...
Debug: 56 5 command.c:364 register_command_handler(): registering 'ocd_jtag_ntrst_delay'...
Debug: 57 5 configuration.c:82 find_file(): found target/stm32f1x.cfg
Debug: 58 5 configuration.c:82 find_file(): found target/swj-dp.tcl
Debug: 59 5 command.c:143 script_debug(): command - ocd_command ocd_command type ocd_transport select
Debug: 60 5 command.c:143 script_debug(): command - ocd_transport ocd_transport select
Debug: 61 5 configuration.c:82 find_file(): found mem_helper.tcl
Debug: 62 6 command.c:143 script_debug(): command - ocd_command ocd_command type ocd_add_usage_text mrw address
Debug: 63 6 command.c:143 script_debug(): command - add_usage_text ocd_add_usage_text mrw address
Debug: 65 6 command.c:1098 help_add_command(): added 'mrw' help text
Debug: 66 6 command.c:143 script_debug(): command - ocd_command ocd_command type ocd_add_help_text mrw Returns value of word in memory.
Debug: 67 6 command.c:143 script_debug(): command - add_help_text ocd_add_help_text mrw Returns value of word in memory.
Debug: 69 6 command.c:1111 help_add_command(): added 'mrw' help text
Debug: 70 6 command.c:143 script_debug(): command - ocd_command ocd_command type ocd_add_usage_text mrb address
Debug: 71 6 command.c:143 script_debug(): command - add_usage_text ocd_add_usage_text mrb address
Debug: 73 6 command.c:1098 help_add_command(): added 'mrb' help text
Debug: 74 6 command.c:143 script_debug(): command - ocd_command ocd_command type ocd_add_help_text mrb Returns value of byte in memory.
Debug: 75 6 command.c:143 script_debug(): command - add_help_text ocd_add_help_text mrb Returns value of byte in memory.
Debug: 77 6 command.c:1111 help_add_command(): added 'mrb' help text
Debug: 78 6 command.c:143 script_debug(): command - ocd_command ocd_command type ocd_add_usage_text mmw address setbits clearbits
Debug: 79 6 command.c:143 script_debug(): command - add_usage_text ocd_add_usage_text mmw address setbits clearbits
Debug: 81 6 command.c:1098 help_add_command(): added 'mmw' help text
Debug: 82 6 command.c:143 script_debug(): command - ocd_command ocd_command type ocd_add_help_text mmw Modify word in memory. new_val = (old_val & ~clearbits) | setbits;
Debug: 83 6 command.c:143 script_debug(): command - add_help_text ocd_add_help_text mmw Modify word in memory. new_val = (old_val & ~clearbits) | setbits;
Debug: 85 6 command.c:1111 help_add_command(): added 'mmw' help text
Debug: 86 6 command.c:143 script_debug(): command - ocd_command ocd_command type ocd_transport select
Debug: 87 6 command.c:143 script_debug(): command - ocd_transport ocd_transport select
Debug: 88 6 command.c:143 script_debug(): command - ocd_command ocd_command type ocd_transport select
Debug: 89 6 command.c:143 script_debug(): command - ocd_transport ocd_transport select
Debug: 90 6 command.c:143 script_debug(): command - ocd_command ocd_command type ocd_transport select
Debug: 91 6 command.c:143 script_debug(): command - ocd_transport ocd_transport select
Debug: 92 6 command.c:143 script_debug(): command - ocd_command ocd_command type ocd_transport select
Debug: 93 6 command.c:143 script_debug(): command - ocd_transport ocd_transport select
Debug: 94 6 command.c:143 script_debug(): command - ocd_command ocd_command type ocd_hla newtap stm32f1x cpu -irlen 4 -ircapture 0x1 -irmask 0xf -expected-id 0x1ba01477
Debug: 95 7 command.c:143 script_debug(): command - ocd_hla ocd_hla newtap stm32f1x cpu -irlen 4 -ircapture 0x1 -irmask 0xf -expected-id 0x1ba01477
Debug: 96 7 hla_tcl.c:116 jim_hl_newtap_cmd(): Creating New Tap, Chip: stm32f1x, Tap: cpu, Dotted: stm32f1x.cpu, 8 params
Debug: 97 7 hla_tcl.c:126 jim_hl_newtap_cmd(): Processing option: -irlen
Debug: 98 7 hla_tcl.c:126 jim_hl_newtap_cmd(): Processing option: -ircapture
Debug: 99 7 hla_tcl.c:126 jim_hl_newtap_cmd(): Processing option: -irmask
Debug: 100 7 hla_tcl.c:126 jim_hl_newtap_cmd(): Processing option: -expected-id
Debug: 101 7 core.c:1304 jtag_tap_init(): Created Tap: stm32f1x.cpu @ abs position 0, irlen 0, capture: 0x0 mask: 0x0
Debug: 102 7 command.c:143 script_debug(): command - ocd_command ocd_command type ocd_transport select
Debug: 103 7 command.c:143 script_debug(): command - ocd_transport ocd_transport select
Debug: 104 7 command.c:143 script_debug(): command - ocd_command ocd_command type ocd_target create stm32f1x.cpu cortex_m -endian little -chain-position stm32f1x.cpu
Debug: 105 7 command.c:143 script_debug(): command - ocd_target ocd_target create stm32f1x.cpu cortex_m -endian little -chain-position stm32f1x.cpu
Info : 106 7 target.c:5343 target_create(): The selected transport took over low-level target control. The results might differ compared to plain JTAG/SWD
Debug: 107 7 target.c:1901 target_free_all_working_areas_restore(): freeing all working areas
Debug: 108 7 command.c:364 register_command_handler(): registering 'ocd_arm'...
Debug: 109 7 command.c:364 register_command_handler(): registering 'ocd_arm'...
Debug: 110 7 command.c:364 register_command_handler(): registering 'ocd_arm'...
Debug: 111 7 command.c:364 register_command_handler(): registering 'ocd_arm'...
Debug: 112 7 command.c:364 register_command_handler(): registering 'ocd_arm'...
Debug: 113 7 command.c:364 register_command_handler(): registering 'ocd_arm'...
Debug: 114 7 command.c:364 register_command_handler(): registering 'ocd_arm'...
Debug: 115 7 command.c:364 register_command_handler(): registering 'ocd_tpiu'...
Debug: 116 7 command.c:364 register_command_handler(): registering 'ocd_itm'...
Debug: 117 7 command.c:364 register_command_handler(): registering 'ocd_itm'...
Debug: 118 7 hla_target.c:351 adapter_target_create(): adapter_target_create
Debug: 119 7 hla_target.c:322 adapter_init_arch_info(): adapter_init_arch_info
Debug: 120 7 command.c:364 register_command_handler(): registering 'ocd_stm32f1x.cpu'...
Debug: 121 7 command.c:364 register_command_handler(): registering 'ocd_stm32f1x.cpu'...
Debug: 122 7 command.c:364 register_command_handler(): registering 'ocd_stm32f1x.cpu'...
Debug: 123 7 command.c:364 register_command_handler(): registering 'ocd_stm32f1x.cpu'...
Debug: 124 7 command.c:364 register_command_handler(): registering 'ocd_stm32f1x.cpu'...
Debug: 125 7 command.c:364 register_command_handler(): registering 'ocd_stm32f1x.cpu'...
Debug: 126 7 command.c:364 register_command_handler(): registering 'ocd_stm32f1x.cpu'...
Debug: 127 7 command.c:364 register_command_handler(): registering 'ocd_stm32f1x.cpu'...
Debug: 128 7 command.c:364 register_command_handler(): registering 'ocd_stm32f1x.cpu'...
Debug: 129 7 command.c:364 register_command_handler(): registering 'ocd_stm32f1x.cpu'...
Debug: 130 7 command.c:364 register_command_handler(): registering 'ocd_stm32f1x.cpu'...
Debug: 131 8 command.c:364 register_command_handler(): registering 'ocd_stm32f1x.cpu'...
Debug: 132 8 command.c:364 register_command_handler(): registering 'ocd_stm32f1x.cpu'...
Debug: 133 8 command.c:364 register_command_handler(): registering 'ocd_stm32f1x.cpu'...
Debug: 134 8 command.c:364 register_command_handler(): registering 'ocd_stm32f1x.cpu'...
Debug: 135 8 command.c:364 register_command_handler(): registering 'ocd_stm32f1x.cpu'...
Debug: 136 8 command.c:364 register_command_handler(): registering 'ocd_stm32f1x.cpu'...
Debug: 137 8 command.c:364 register_command_handler(): registering 'ocd_stm32f1x.cpu'...
Debug: 138 8 command.c:364 register_command_handler(): registering 'ocd_stm32f1x.cpu'...
Debug: 139 8 command.c:364 register_command_handler(): registering 'ocd_stm32f1x.cpu'...
Debug: 140 8 command.c:364 register_command_handler(): registering 'ocd_stm32f1x.cpu'...
Debug: 141 8 command.c:364 register_command_handler(): registering 'ocd_stm32f1x.cpu'...
Debug: 142 8 command.c:364 register_command_handler(): registering 'ocd_stm32f1x.cpu'...
Debug: 143 8 command.c:364 register_command_handler(): registering 'ocd_stm32f1x.cpu'...
Debug: 144 8 command.c:364 register_command_handler(): registering 'ocd_stm32f1x.cpu'...
Debug: 145 8 command.c:364 register_command_handler(): registering 'ocd_stm32f1x.cpu'...
Debug: 146 8 command.c:364 register_command_handler(): registering 'ocd_stm32f1x.cpu'...
Debug: 147 8 command.c:364 register_command_handler(): registering 'ocd_stm32f1x.cpu'...
Debug: 148 8 command.c:364 register_command_handler(): registering 'ocd_stm32f1x.cpu'...
Debug: 149 8 command.c:364 register_command_handler(): registering 'ocd_stm32f1x.cpu'...
Debug: 150 8 command.c:364 register_command_handler(): registering 'ocd_stm32f1x.cpu'...
Debug: 151 8 command.c:364 register_command_handler(): registering 'ocd_stm32f1x.cpu'...
Debug: 152 8 command.c:364 register_command_handler(): registering 'ocd_stm32f1x.cpu'...
Debug: 153 8 command.c:364 register_command_handler(): registering 'ocd_stm32f1x.cpu'...
Debug: 154 8 command.c:143 script_debug(): command - ocd_command ocd_command type ocd_stm32f1x.cpu configure -work-area-phys 0x20000000 -work-area-size 0x1000 -work-area-backup 0
Debug: 155 8 command.c:143 script_debug(): command - ocd_stm32f1x.cpu ocd_stm32f1x.cpu configure -work-area-phys 0x20000000 -work-area-size 0x1000 -work-area-backup 0
Debug: 156 8 target.c:1901 target_free_all_working_areas_restore(): freeing all working areas
Debug: 157 8 target.c:1901 target_free_all_working_areas_restore(): freeing all working areas
Debug: 158 8 target.c:1901 target_free_all_working_areas_restore(): freeing all working areas
Debug: 159 8 command.c:143 script_debug(): command - ocd_command ocd_command type ocd_flash bank stm32f1x.flash stm32f1x 0x08000000 0 0 0 stm32f1x.cpu
Debug: 160 8 command.c:143 script_debug(): command - ocd_flash ocd_flash bank stm32f1x.flash stm32f1x 0x08000000 0 0 0 stm32f1x.cpu
Debug: 162 8 command.c:364 register_command_handler(): registering 'ocd_stm32f1x'...
Debug: 163 8 command.c:364 register_command_handler(): registering 'ocd_stm32f1x'...
Debug: 164 8 command.c:364 register_command_handler(): registering 'ocd_stm32f1x'...
Debug: 165 8 command.c:364 register_command_handler(): registering 'ocd_stm32f1x'...
Debug: 166 9 command.c:364 register_command_handler(): registering 'ocd_stm32f1x'...
Debug: 167 9 tcl.c:1033 handle_flash_bank_command(): 'stm32f1x' driver usage field missing
Debug: 168 9 command.c:143 script_debug(): command - ocd_command ocd_command type ocd_adapter_khz 1000
Debug: 169 9 command.c:143 script_debug(): command - adapter_khz ocd_adapter_khz 1000
Debug: 171 9 core.c:1631 jtag_config_khz(): handle jtag khz
Debug: 172 9 core.c:1598 adapter_khz_to_speed(): convert khz to interface specific speed value
Debug: 173 9 core.c:1598 adapter_khz_to_speed(): convert khz to interface specific speed value
User : 174 9 command.c:544 command_print(): adapter speed: 1000 kHz
Debug: 175 9 command.c:143 script_debug(): command - ocd_command ocd_command type ocd_adapter_nsrst_delay 100
Debug: 176 9 command.c:143 script_debug(): command - adapter_nsrst_delay ocd_adapter_nsrst_delay 100
User : 178 9 command.c:544 command_print(): adapter_nsrst_delay: 100
Debug: 179 9 command.c:143 script_debug(): command - ocd_command ocd_command type ocd_transport select
Debug: 180 9 command.c:143 script_debug(): command - ocd_transport ocd_transport select
Debug: 181 9 command.c:143 script_debug(): command - ocd_command ocd_command type ocd_reset_config srst_nogate
Debug: 182 9 command.c:143 script_debug(): command - reset_config ocd_reset_config srst_nogate
User : 184 9 command.c:544 command_print(): none separate
Debug: 185 9 command.c:143 script_debug(): command - ocd_command ocd_command type ocd_transport select
Debug: 186 9 command.c:143 script_debug(): command - ocd_transport ocd_transport select
Debug: 187 9 command.c:143 script_debug(): command - ocd_command ocd_command type ocd_stm32f1x.cpu configure -event examine-end 
	# DBGMCU_CR |= DBG_WWDG_STOP | DBG_IWDG_STOP |
	#              DBG_STANDBY | DBG_STOP | DBG_SLEEP
	mmw 0xE0042004 0x00000307 0

Debug: 188 9 command.c:143 script_debug(): command - ocd_stm32f1x.cpu ocd_stm32f1x.cpu configure -event examine-end 
	# DBGMCU_CR |= DBG_WWDG_STOP | DBG_IWDG_STOP |
	#              DBG_STANDBY | DBG_STOP | DBG_SLEEP
	mmw 0xE0042004 0x00000307 0

Debug: 189 9 command.c:143 script_debug(): command - ocd_command ocd_command type ocd_stm32f1x.cpu configure -event trace-config 
	# Set TRACE_IOEN; TRACE_MODE is set to async; when using sync
	# change this value accordingly to configure trace pins
	# assignment
	mmw 0xE0042004 0x00000020 0

Debug: 190 9 command.c:143 script_debug(): command - ocd_stm32f1x.cpu ocd_stm32f1x.cpu configure -event trace-config 
	# Set TRACE_IOEN; TRACE_MODE is set to async; when using sync
	# change this value accordingly to configure trace pins
	# assignment
	mmw 0xE0042004 0x00000020 0

Debug: 191 11 command.c:143 script_debug(): command - ocd_command ocd_command type ocd_reset_config srst_nogate
Debug: 192 11 command.c:143 script_debug(): command - reset_config ocd_reset_config srst_nogate
User : 194 12 command.c:544 command_print(): none separate
Debug: 195 12 command.c:143 script_debug(): command - ocd_command ocd_command type ocd_init
Debug: 196 12 command.c:143 script_debug(): command - init ocd_init
Debug: 198 12 command.c:143 script_debug(): command - ocd_command ocd_command type ocd_target init
Debug: 199 12 command.c:143 script_debug(): command - ocd_target ocd_target init
Debug: 201 12 command.c:143 script_debug(): command - ocd_command ocd_command type ocd_target names
Debug: 202 12 command.c:143 script_debug(): command - ocd_target ocd_target names
Debug: 203 12 command.c:143 script_debug(): command - ocd_command ocd_command type ocd_stm32f1x.cpu cget -event gdb-flash-erase-start
Debug: 204 12 command.c:143 script_debug(): command - ocd_stm32f1x.cpu ocd_stm32f1x.cpu cget -event gdb-flash-erase-start
Debug: 205 12 command.c:143 script_debug(): command - ocd_command ocd_command type ocd_stm32f1x.cpu configure -event gdb-flash-erase-start reset init
Debug: 206 12 command.c:143 script_debug(): command - ocd_stm32f1x.cpu ocd_stm32f1x.cpu configure -event gdb-flash-erase-start reset init
Debug: 207 12 command.c:143 script_debug(): command - ocd_command ocd_command type ocd_stm32f1x.cpu cget -event gdb-flash-write-end
Debug: 208 12 command.c:143 script_debug(): command - ocd_stm32f1x.cpu ocd_stm32f1x.cpu cget -event gdb-flash-write-end
Debug: 209 12 command.c:143 script_debug(): command - ocd_command ocd_command type ocd_stm32f1x.cpu configure -event gdb-flash-write-end reset halt
Debug: 210 12 command.c:143 script_debug(): command - ocd_stm32f1x.cpu ocd_stm32f1x.cpu configure -event gdb-flash-write-end reset halt
Debug: 211 12 target.c:1326 handle_target_init_command(): Initializing targets...
Debug: 212 12 hla_target.c:341 adapter_init_target(): adapter_init_target
Debug: 213 12 command.c:364 register_command_handler(): registering 'ocd_target_request'...
Debug: 214 12 command.c:364 register_command_handler(): registering 'ocd_trace'...
Debug: 215 12 command.c:364 register_command_handler(): registering 'ocd_trace'...
Debug: 216 12 command.c:364 register_command_handler(): registering 'ocd_fast_load_image'...
Debug: 217 12 command.c:364 register_command_handler(): registering 'ocd_fast_load'...
Debug: 218 12 command.c:364 register_command_handler(): registering 'ocd_profile'...
Debug: 219 12 command.c:364 register_command_handler(): registering 'ocd_virt2phys'...
Debug: 220 12 command.c:364 register_command_handler(): registering 'ocd_reg'...
Debug: 221 12 command.c:364 register_command_handler(): registering 'ocd_poll'...
Debug: 222 12 command.c:364 register_command_handler(): registering 'ocd_wait_halt'...
Debug: 223 12 command.c:364 register_command_handler(): registering 'ocd_halt'...
Debug: 224 12 command.c:364 register_command_handler(): registering 'ocd_resume'...
Debug: 225 13 command.c:364 register_command_handler(): registering 'ocd_reset'...
Debug: 226 13 command.c:364 register_command_handler(): registering 'ocd_soft_reset_halt'...
Debug: 227 13 command.c:364 register_command_handler(): registering 'ocd_step'...
Debug: 228 13 command.c:364 register_command_handler(): registering 'ocd_mdw'...
Debug: 229 13 command.c:364 register_command_handler(): registering 'ocd_mdh'...
Debug: 230 13 command.c:364 register_command_handler(): registering 'ocd_mdb'...
Debug: 231 13 command.c:364 register_command_handler(): registering 'ocd_mww'...
Debug: 232 13 command.c:364 register_command_handler(): registering 'ocd_mwh'...
Debug: 233 13 command.c:364 register_command_handler(): registering 'ocd_mwb'...
Debug: 234 13 command.c:364 register_command_handler(): registering 'ocd_bp'...
Debug: 235 13 command.c:364 register_command_handler(): registering 'ocd_rbp'...
Debug: 236 13 command.c:364 register_command_handler(): registering 'ocd_wp'...
Debug: 237 13 command.c:364 register_command_handler(): registering 'ocd_rwp'...
Debug: 238 13 command.c:364 register_command_handler(): registering 'ocd_load_image'...
Debug: 239 13 command.c:364 register_command_handler(): registering 'ocd_dump_image'...
Debug: 240 13 command.c:364 register_command_handler(): registering 'ocd_verify_image_checksum'...
Debug: 241 13 command.c:364 register_command_handler(): registering 'ocd_verify_image'...
Debug: 242 13 command.c:364 register_command_handler(): registering 'ocd_test_image'...
Debug: 243 13 command.c:364 register_command_handler(): registering 'ocd_reset_nag'...
Debug: 244 13 command.c:364 register_command_handler(): registering 'ocd_ps'...
Debug: 245 13 command.c:364 register_command_handler(): registering 'ocd_test_mem_access'...
Debug: 246 13 hla_interface.c:109 hl_interface_init(): hl_interface_init
Debug: 247 13 hla_layout.c:83 hl_layout_init(): hl_layout_init
Debug: 248 13 core.c:1598 adapter_khz_to_speed(): convert khz to interface specific speed value
Debug: 249 13 core.c:1601 adapter_khz_to_speed(): have interface set up
Info : 250 13 stlink_usb.c:1608 stlink_speed(): Unable to match requested speed 1000 kHz, using 950 kHz
Debug: 251 13 core.c:1598 adapter_khz_to_speed(): convert khz to interface specific speed value
Debug: 252 14 core.c:1601 adapter_khz_to_speed(): have interface set up
Info : 253 14 stlink_usb.c:1608 stlink_speed(): Unable to match requested speed 1000 kHz, using 950 kHz
Info : 254 14 core.c:1386 adapter_init(): clock speed 950 kHz
Debug: 255 14 openocd.c:140 handle_init_command(): Debug Adapter init complete
Debug: 256 14 command.c:143 script_debug(): command - ocd_command ocd_command type ocd_transport init
Debug: 257 14 command.c:143 script_debug(): command - ocd_transport ocd_transport init
Debug: 259 14 transport.c:239 handle_transport_init(): handle_transport_init
Debug: 260 14 hla_transport.c:152 hl_transport_init(): hl_transport_init
Debug: 261 14 hla_transport.c:169 hl_transport_init(): current transport hla_swd
Debug: 262 14 hla_interface.c:42 hl_interface_open(): hl_interface_open
Debug: 263 14 hla_layout.c:40 hl_layout_open(): hl_layout_open
Debug: 264 14 stlink_usb.c:1642 stlink_usb_open(): stlink_usb_open
Debug: 265 14 stlink_usb.c:1659 stlink_usb_open(): transport: 1 vid: 0x0483 pid: 0x3748 serial: 
Info : 266 105 stlink_usb.c:563 stlink_usb_version(): STLINK v2 JTAG v17 API v2 SWIM v4 VID 0x0483 PID 0x3748
Info : 267 105 stlink_usb.c:1770 stlink_usb_open(): using stlink api v2
Debug: 268 107 stlink_usb.c:762 stlink_usb_init_mode(): MODE: 0x02
Info : 269 112 stlink_usb.c:595 stlink_usb_check_voltage(): Target voltage: 3.238573
Debug: 270 112 stlink_usb.c:817 stlink_usb_init_mode(): MODE: 0x01
Debug: 271 117 stlink_usb.c:843 stlink_usb_init_mode(): MODE: 0x02
Debug: 272 120 stlink_usb.c:1808 stlink_usb_open(): Using TAR autoincrement: 4096
Debug: 273 120 hla_interface.c:127 hl_interface_execute_queue(): hl_interface_execute_queue: ignored
Debug: 274 121 core.c:729 jtag_add_reset(): SRST line released
Debug: 275 121 core.c:753 jtag_add_reset(): TRST line released
Debug: 276 121 core.c:327 jtag_call_event_callbacks(): jtag event: TAP reset
Debug: 277 121 hla_interface.c:67 hl_interface_init_target(): hl_interface_init_target
Debug: 278 122 stlink_usb.c:868 stlink_usb_idcode(): IDCODE: 0x1BA01477
Debug: 279 122 openocd.c:153 handle_init_command(): Examining targets...
Debug: 280 123 target.c:1519 target_call_event_callbacks(): target event 21 (examine-start)
Debug: 281 123 hla_target.c:750 adapter_read_memory(): adapter_read_memory 0xe000ed00 4 1
Debug: 282 126 target.c:2242 target_read_u32(): address: 0xe000ed00, value: 0x411fc231
Debug: 283 126 cortex_m.c:1947 cortex_m_examine(): Cortex-M3 r1p1 processor detected
Debug: 284 126 cortex_m.c:1955 cortex_m_examine(): cpuid: 0x411fc231
Debug: 285 126 target.c:2330 target_write_u32(): address: 0xe000edfc, value: 0x01000000
Debug: 286 126 hla_target.c:764 adapter_write_memory(): adapter_write_memory 0xe000edfc 4 1
Debug: 287 130 hla_target.c:750 adapter_read_memory(): adapter_read_memory 0xe0002000 4 1
Debug: 288 134 target.c:2242 target_read_u32(): address: 0xe0002000, value: 0x00000260
Debug: 289 134 target.c:2330 target_write_u32(): address: 0xe0002008, value: 0x00000000
Debug: 290 134 hla_target.c:764 adapter_write_memory(): adapter_write_memory 0xe0002008 4 1
Debug: 291 138 target.c:2330 target_write_u32(): address: 0xe000200c, value: 0x00000000
Debug: 292 138 hla_target.c:764 adapter_write_memory(): adapter_write_memory 0xe000200c 4 1
Debug: 293 142 target.c:2330 target_write_u32(): address: 0xe0002010, value: 0x00000000
Debug: 294 142 hla_target.c:764 adapter_write_memory(): adapter_write_memory 0xe0002010 4 1
Debug: 295 146 target.c:2330 target_write_u32(): address: 0xe0002014, value: 0x00000000
Debug: 296 146 hla_target.c:764 adapter_write_memory(): adapter_write_memory 0xe0002014 4 1
Debug: 297 150 target.c:2330 target_write_u32(): address: 0xe0002018, value: 0x00000000
Debug: 298 150 hla_target.c:764 adapter_write_memory(): adapter_write_memory 0xe0002018 4 1
Debug: 299 154 target.c:2330 target_write_u32(): address: 0xe000201c, value: 0x00000000
Debug: 300 154 hla_target.c:764 adapter_write_memory(): adapter_write_memory 0xe000201c 4 1
Debug: 301 158 target.c:2330 target_write_u32(): address: 0xe0002020, value: 0x00000000
Debug: 302 158 hla_target.c:764 adapter_write_memory(): adapter_write_memory 0xe0002020 4 1
Debug: 303 162 target.c:2330 target_write_u32(): address: 0xe0002024, value: 0x00000000
Debug: 304 162 hla_target.c:764 adapter_write_memory(): adapter_write_memory 0xe0002024 4 1
Debug: 305 166 cortex_m.c:2046 cortex_m_examine(): FPB fpcr 0x260, numcode 6, numlit 2
Debug: 306 166 hla_target.c:750 adapter_read_memory(): adapter_read_memory 0xe0001000 4 1
Debug: 307 170 target.c:2242 target_read_u32(): address: 0xe0001000, value: 0x40011a01
Debug: 308 170 target.c:2330 target_write_u32(): address: 0xe0001028, value: 0x00000000
Debug: 309 170 hla_target.c:764 adapter_write_memory(): adapter_write_memory 0xe0001028 4 1
Debug: 310 174 target.c:2330 target_write_u32(): address: 0xe0001038, value: 0x00000000
Debug: 311 174 hla_target.c:764 adapter_write_memory(): adapter_write_memory 0xe0001038 4 1
Debug: 312 178 target.c:2330 target_write_u32(): address: 0xe0001048, value: 0x00000000
Debug: 313 178 hla_target.c:764 adapter_write_memory(): adapter_write_memory 0xe0001048 4 1
Debug: 314 182 target.c:2330 target_write_u32(): address: 0xe0001058, value: 0x00000000
Debug: 315 182 hla_target.c:764 adapter_write_memory(): adapter_write_memory 0xe0001058 4 1
Debug: 316 186 cortex_m.c:1857 cortex_m_dwt_setup(): DWT dwtcr 0x40011a01, comp 4, watch/trigger
Info : 317 186 cortex_m.c:2056 cortex_m_examine(): stm32f1x.cpu: hardware has 6 breakpoints, 4 watchpoints
Debug: 318 186 target.c:1519 target_call_event_callbacks(): target event 22 (examine-end)
Debug: 319 186 target.c:4316 target_handle_event(): target: (0) stm32f1x.cpu (hla_target) event: 22 (examine-end) action: 
	# DBGMCU_CR |= DBG_WWDG_STOP | DBG_IWDG_STOP |
	#              DBG_STANDBY | DBG_STOP | DBG_SLEEP
	mmw 0xE0042004 0x00000307 0

Debug: 320 186 hla_target.c:750 adapter_read_memory(): adapter_read_memory 0xe0042004 4 1
Debug: 321 190 command.c:143 script_debug(): command - ocd_command ocd_command type ocd_mww 0xE0042004 807
Debug: 322 190 command.c:143 script_debug(): command - mww ocd_mww 0xE0042004 807
Debug: 324 192 hla_target.c:764 adapter_write_memory(): adapter_write_memory 0xe0042004 4 1
Debug: 325 196 command.c:143 script_debug(): command - ocd_command ocd_command type ocd_flash init
Debug: 326 196 command.c:143 script_debug(): command - ocd_flash ocd_flash init
Debug: 328 198 tcl.c:1099 handle_flash_init_command(): Initializing flash devices...
Debug: 329 198 command.c:364 register_command_handler(): registering 'ocd_flash'...
Debug: 330 198 command.c:364 register_command_handler(): registering 'ocd_flash'...
Debug: 331 198 command.c:364 register_command_handler(): registering 'ocd_flash'...
Debug: 332 198 command.c:364 register_command_handler(): registering 'ocd_flash'...
Debug: 333 198 command.c:364 register_command_handler(): registering 'ocd_flash'...
Debug: 334 198 command.c:364 register_command_handler(): registering 'ocd_flash'...
Debug: 335 198 command.c:364 register_command_handler(): registering 'ocd_flash'...
Debug: 336 198 command.c:364 register_command_handler(): registering 'ocd_flash'...
Debug: 337 198 command.c:364 register_command_handler(): registering 'ocd_flash'...
Debug: 338 198 command.c:364 register_command_handler(): registering 'ocd_flash'...
Debug: 339 198 command.c:364 register_command_handler(): registering 'ocd_flash'...
Debug: 340 198 command.c:364 register_command_handler(): registering 'ocd_flash'...
Debug: 341 198 command.c:364 register_command_handler(): registering 'ocd_flash'...
Debug: 342 198 command.c:364 register_command_handler(): registering 'ocd_flash'...
Debug: 343 198 command.c:143 script_debug(): command - ocd_command ocd_command type ocd_mflash init
Debug: 344 198 command.c:143 script_debug(): command - ocd_mflash ocd_mflash init
Debug: 346 200 mflash.c:1377 handle_mflash_init_command(): Initializing mflash devices...
Debug: 347 200 command.c:143 script_debug(): command - ocd_command ocd_command type ocd_nand init
Debug: 348 200 command.c:143 script_debug(): command - ocd_nand ocd_nand init
Debug: 350 202 tcl.c:497 handle_nand_init_command(): Initializing NAND devices...
Debug: 351 202 command.c:143 script_debug(): command - ocd_command ocd_command type ocd_pld init
Debug: 352 202 command.c:143 script_debug(): command - ocd_pld ocd_pld init
Debug: 354 204 pld.c:205 handle_pld_init_command(): Initializing PLDs...
^CDebug: 355 3711 hla_interface.c:117 hl_interface_quit(): hl_interface_quit

]0;root@gravitar: /usr/local/src/openocd-0.10.1/tclroot@gravitar:/usr/local/src/openocd-0.10.1/tcl# exujt[K[K[Kit
exit

Script done on Thu 31 Oct 2019 11:50:34 AM PDT
